! AWR Design Environment (10088) Wed Apr 14 22:55:00 2021
! Document = 'EM Structure'
! nPorts: 2, nXvals: 141

# GHz S DB R 50
!Freq DBS11 AngS11 DBS21 AngS21 DBS12 AngS12 DBS22 AngS22 
0 -144.93994 180 -8.3482299e-07 0 -8.4129396e-07 0 -145.05497 180 
0.1 -25.560026 -98.077043 -0.011878711 -8.1253974 -0.011878711 -8.1253974 -25.559977 -98.072849 
0.2 -19.691973 -106.14572 -0.046187829 -16.202262 -0.046187829 -16.202262 -19.691945 -106.1373 
0.3 -16.404003 -114.15776 -0.099604318 -24.181438 -0.099604318 -24.181438 -16.403993 -114.14503 
0.4 -14.214805 -122.07072 -0.16737537 -32.027045 -0.16737537 -32.027045 -14.214811 -122.05354 
0.5 -12.656678 -129.85275 -0.24380301 -39.720797 -0.24380301 -39.720797 -12.656695 -129.8309 
0.6 -11.519828 -137.48575 -0.32270327 -47.263274 -0.32270327 -47.263274 -11.519851 -137.45894 
0.7 -10.692931 -144.96709 -0.39779863 -54.672393 -0.39779863 -54.672393 -10.692954 -144.9349 
0.8 -10.112062 -152.31002 -0.46305437 -61.979894 -0.46305437 -61.979894 -10.112078 -152.27192 
0.9 -9.743292 -159.56081 -0.5127717 -69.223818 -0.5127717 -69.223818 -9.7432991 -159.51608 
1 -9.5684558 -166.78415 -0.54246321 -76.446935 -0.54246321 -76.446935 -9.5684576 -166.73185 
1.1 -9.5789499 -174.03585 -0.54938255 -83.697536 -0.54938255 -83.697536 -9.5789507 -173.97473 
1.2 -9.7784195 178.62551 -0.53248072 -91.023909 -0.53248072 -91.023909 -9.7784259 178.69719 
1.3 -10.183648 171.14029 -0.49268974 -98.471707 -0.49268974 -98.471707 -10.183671 171.225 
1.4 -10.827957 163.44879 -0.43314629 -106.08145 -0.43314629 -106.08145 -10.828016 163.55019 
1.5 -11.768738 155.49033 -0.35927189 -113.88586 -0.35927189 -113.88586 -11.768871 155.61419 
1.6 -13.103762 147.19618 -0.27860518 -121.90676 -0.27860518 -121.90676 -13.104052 147.35231 
1.7 -15.010193 138.46203 -0.20028195 -130.15166 -0.20028195 -130.15166 -15.010848 138.66924 
1.8 -17.848711 129.09451 -0.13373347 -138.61376 -0.13373347 -138.61376 -17.850362 129.39611 
1.9 -22.616168 118.32068 -0.087507528 -147.26495 -0.087507528 -147.26495 -22.621991 118.8598 
2 -35.145935 94.076342 -0.068374993 -156.05392 -0.068374993 -156.05392 -35.259768 96.294263 
2.1 -27.447808 -66.928631 -0.079720281 -164.91574 -0.079720281 -164.91574 -27.466902 -67.880178 
2.2 -20.042239 -80.514134 -0.12057778 -173.78123 -0.12057778 -173.78123 -20.045458 -80.914978 
2.3 -16.286659 -90.550308 -0.18540804 177.41154 -0.18540804 177.41154 -16.28784 -90.801083 
2.4 -13.912561 -99.751336 -0.26469574 168.70635 -0.26469574 168.70635 -13.913124 -99.931481 
2.5 -12.319835 -108.52758 -0.34619451 160.12056 -0.34619451 160.12056 -12.320144 -108.66608 
2.6 -11.267277 -117.02944 -0.4165009 151.6403 -0.4165009 151.6403 -11.267465 -117.13997 
2.7 -10.641297 -125.37281 -0.46341922 143.2209 -0.46341922 143.2209 -10.641418 -125.46271 
2.8 -10.399871 -133.66538 -0.47687748 134.78046 -0.47687748 134.78046 -10.399949 -133.73881 
2.9 -10.563305 -142.02565 -0.44938987 126.19799 -0.44938987 126.19799 -10.563348 -142.08485 
3 -11.22527 -150.5885 -0.37862019 117.31804 -0.37862019 117.31804 -11.225273 -150.63409 
3.1 -12.616722 -159.46822 -0.27028432 107.95368 -0.27028432 107.95368 -12.616652 -159.49855 
3.2 -15.33141 -168.5951 -0.14236942 97.897478 -0.14236942 97.897478 -15.331134 -168.60264 
3.3 -21.590575 -176.31668 -0.030383008 86.952377 -0.030383008 86.952377 -21.588889 -176.2591 
3.4 -29.604654 -29.783793 0.0087020486 74.99824 0.0087020486 74.99824 -29.593006 -30.110921 
3.5 -15.387453 -30.2095 -0.10017664 62.097739 -0.10017664 62.097739 -15.387132 -30.309944 
3.6 -9.8690038 -42.486857 -0.42918653 48.599744 -0.42918653 48.599744 -9.8689962 -42.556019 
3.7 -6.5573562 -55.753055 -1.0197963 35.133397 -1.0197963 35.133397 -6.5573999 -55.808291 
3.8 -4.4021243 -68.591729 -1.8627358 22.391515 -1.8627358 22.391515 -4.4021646 -68.638321 
3.9 -2.9783765 -80.30465 -2.9006631 10.866856 -2.9006631 10.866856 -2.9783953 -80.34491 
4 -2.0380836 -90.616726 -4.0562958 0.73974793 -4.0562958 0.73974793 -2.0380789 -90.651875 
4.1 -1.4137524 -99.571294 -5.2579934 -8.0248787 -5.2579934 -8.0248787 -1.4137272 -99.602112 
4.2 -0.99187329 -107.33726 -6.4545116 -15.568426 -6.4545116 -15.568426 -0.99182916 -107.36432 
4.3 -0.70150013 -114.09606 -7.6148096 -22.09266 -7.6148096 -22.09266 -0.70143994 -114.11976 
4.4 -0.49765401 -120.02551 -8.7214947 -27.790886 -8.7214947 -27.790886 -0.49758132 -120.04616 
4.5 -0.3518455 -125.27978 -9.7658826 -32.82966 -9.7658826 -32.82966 -0.35176433 -125.29763 
4.6 -0.24587574 -129.98531 -10.744459 -37.345856 -10.744459 -37.345856 -0.24579033 -130.00055 
4.7 -0.16793576 -134.24294 -11.656682 -41.450063 -11.656682 -41.450063 -0.16785047 -134.25574 
4.8 -0.11016966 -138.13172 -12.503757 -45.231993 -12.503757 -45.231993 -0.11008879 -138.14221 
4.9 -0.067092326 -141.71241 -13.288095 -48.766022 -13.288095 -48.766022 -0.067019841 -141.7207 
5 -0.034411268 -145.03013 -14.013214 -52.115757 -14.013214 -52.115757 -0.034350162 -145.03629 
5.1 -0.0078474179 -148.11645 -14.683844 -55.336269 -14.683844 -55.336269 -0.0077982583 -148.12054 
5.2 0.018581959 -150.99218 -15.305424 -58.473079 -15.305424 -58.473079 0.018623843 -150.99421 
5.3 0.03053712 -153.73799 -15.881404 -61.217396 -15.881404 -61.217396 0.030569609 -153.73811 
5.4 0.08800083 -156.31529 -16.39877 -64.020144 -16.39877 -64.020144 0.088060138 -156.31349 
5.5 0.49190184 -159.29956 -16.70295 -69.140617 -16.70295 -69.140617 0.49217565 -159.29614 
5.6 -0.33234478 -163.25671 -18.115802 -68.376218 -18.115802 -68.376218 -0.33243906 -163.25197 
5.7 -0.1227963 -164.34627 -18.293498 -70.821982 -18.293498 -70.821982 -0.12273703 -164.33917 
5.8 -0.0675299 -166.42265 -18.660319 -73.256993 -18.660319 -73.256993 -0.067425629 -166.41373 
5.9 -0.064448402 -168.59211 -19.022919 -75.639037 -19.022919 -75.639037 -0.064350823 -168.58144 
6 -0.076070695 -170.79006 -19.353209 -78.019408 -19.353209 -78.019408 -0.07599325 -170.77772 
6.1 -0.076047207 -173.00188 -19.641655 -80.411809 -19.641655 -80.411809 -0.075968952 -172.98796 
6.2 -0.066464765 -175.1323 -19.89269 -82.866858 -19.89269 -82.866858 -0.066371778 -175.11675 
6.3 -0.061804568 -177.17193 -20.11055 -85.416552 -20.11055 -85.416552 -0.061704295 -177.15464 
6.4 -0.063337906 -179.27057 -20.290031 -88.008293 -20.290031 -88.008293 -0.063235351 -179.25164 
6.5 -0.067379113 178.56742 -20.436169 -90.671321 -20.436169 -90.671321 -0.06726914 178.58791 
6.6 -0.071388956 176.41272 -20.554717 -93.467248 -20.554717 -93.467248 -0.071260407 176.4348 
6.7 -0.076802739 174.26147 -20.642416 -96.383536 -20.642416 -96.383536 -0.076650406 174.28518 
6.8 -0.085804809 172.10789 -20.695501 -99.394896 -20.695501 -99.394896 -0.08563166 172.13328 
6.9 -0.1008836 169.94478 -20.711337 -102.47511 -20.711337 -102.47511 -0.10070029 169.97192 
7 -0.12457616 167.7652 -20.689849 -105.61561 -20.689849 -105.61561 -0.12439747 167.79417 
7.1 -0.1437972 165.39753 -20.614069 -108.68992 -20.614069 -108.68992 -0.14364172 165.4281 
7.2 -0.15924776 162.87046 -20.502518 -111.84659 -20.502518 -111.84659 -0.1591063 162.90246 
7.3 -0.21735052 160.61654 -20.444233 -115.88765 -20.444233 -115.88765 -0.21712699 160.65055 
7.4 -0.3580504 159.46597 -20.826749 -121.99774 -20.826749 -121.99774 -0.35732846 159.50202 
7.5 0.10711905 158.52459 -21.548227 -113.05306 -21.548227 -113.05306 0.1074498 158.55364 
7.6 0.049122171 154.20683 -20.19989 -116.99341 -20.19989 -116.99341 0.048747105 154.24134 
7.7 -0.040986882 151.40562 -19.785723 -121.50134 -19.785723 -121.50134 -0.041496178 151.44362 
7.8 -0.033681687 148.55572 -19.399722 -124.85607 -19.399722 -124.85607 -0.034243718 148.59528 
7.9 0.02607593 145.95677 -18.964887 -129.807 -18.964887 -129.807 0.025711921 145.99906 
8 0.069325764 143.01025 -18.478798 -134.15506 -18.478798 -134.15506 0.069030399 143.05513 
8.1 0.097893128 139.69875 -17.934148 -137.92493 -17.934148 -137.92493 0.097549066 139.74595 
8.2 0.11451307 136.00736 -17.318017 -141.18574 -17.318017 -141.18574 0.11402831 136.05642 
8.3 0.12230238 131.92191 -16.612659 -144.0556 -16.612659 -144.0556 0.12162109 131.97229 
8.4 0.12413229 127.42567 -15.797968 -146.70494 -15.797968 -146.70494 0.12324092 127.47674 
8.5 0.12195109 122.49392 -14.855285 -149.35458 -14.855285 -149.35458 0.12087798 122.54507 
8.6 0.1160836 117.08651 -13.77166 -152.26524 -13.77166 -152.26524 0.11489069 117.13726 
8.7 0.10445952 111.1387 -12.54333 -155.71943 -12.54333 -155.71943 0.10322663 111.18876 
8.8 0.12917184 104.61581 -11.240231 -160.30351 -11.240231 -160.30351 0.1278431 104.66636 
8.9 0.052714696 97.054829 -9.7255647 -165.3137 -9.7255647 -165.3137 0.051530237 97.102288 
9 -0.0086652132 88.603225 -8.1824164 -172.05701 -8.1824164 -172.05701 -0.0097831632 88.648904 
9.1 -0.13031622 78.987071 -6.5976959 179.51856 -6.5976959 179.51856 -0.13134877 79.031054 
9.2 -0.36536182 68.057454 -5.0350644 169.20424 -5.0350644 169.20424 -0.36631138 68.100166 
9.3 -0.79314199 55.799047 -3.5867216 156.94519 -3.5867216 156.94519 -0.79403831 55.841254 
9.4 -1.5095564 42.505969 -2.3656861 142.98405 -2.3656861 142.98405 -1.5104513 42.548763 
9.5 -2.5908481 28.926652 -1.4727949 127.9707 -1.4727949 127.9707 -2.5917912 28.971433 
9.6 -4.0406333 16.182598 -0.94873263 112.84971 -0.94873263 112.84971 -4.0416181 16.231049 
9.7 -5.7682458 5.4742443 -0.75121524 98.502562 -0.75121524 98.502562 -5.7691564 5.5286315 
9.8 -7.6125309 -2.3086215 -0.78826239 85.449555 -0.78826239 85.449555 -7.6130794 -2.2456988 
9.9 -9.3684487 -6.8145686 -0.96784203 73.805538 -0.96784203 73.805538 -9.3680448 -6.7415418 
10 -10.820637 -8.2887446 -1.2207545 63.428595 -1.2207545 63.428595 -10.818406 -8.2068669 
10.1 -11.795864 -7.654543 -1.5030868 54.078954 -1.5030868 54.078954 -11.790981 -7.5690953 
10.2 -12.235222 -6.2746331 -1.7892086 45.511605 -1.7892086 45.511605 -12.227374 -6.1931748 
10.3 -12.212998 -5.3284833 -2.0644472 37.515142 -2.0644472 37.515142 -12.202443 -5.2570257 
10.4 -11.870587 -5.374155 -2.3202107 29.922636 -2.3202107 29.922636 -11.857808 -5.3151815 
10.5 -11.340493 -6.425999 -2.5514483 22.610612 -2.5514483 22.610612 -11.325901 -6.3791785 
10.6 -10.746401 -8.4704922 -2.7521913 15.482315 -2.7521913 15.482315 -10.730116 -8.4324823 
10.7 -10.154273 -11.34618 -2.9203641 8.489172 -2.9203641 8.489172 -10.136312 -11.312603 
10.8 -9.5634618 -14.594402 -3.0647062 1.6220891 -3.0647062 1.6220891 -9.5440642 -14.563131 
10.9 -8.9694588 -17.801965 -3.1992499 -5.1373781 -3.1992499 -5.1373781 -8.9490617 -17.773608 
11 -8.3761766 -20.690728 -3.3379457 -11.836325 -3.3379457 -11.836325 -8.3552693 -20.667975 
11.1 -7.8094265 -23.343429 -3.4814759 -18.593491 -3.4814759 -18.593491 -7.7881242 -23.328922 
11.2 -7.2858533 -25.914413 -3.6217593 -25.495289 -3.6217593 -25.495289 -7.2639981 -25.909409 
11.3 -6.8007464 -28.377253 -3.7570449 -32.532118 -3.7570449 -32.532118 -6.7783418 -28.381885 
11.4 -6.3486723 -30.711125 -3.8890287 -39.672146 -3.8890287 -39.672146 -6.3259179 -30.724574 
11.5 -5.925243 -32.899081 -4.023613 -46.891959 -4.023613 -46.891959 -5.9024963 -32.920083 
11.6 -5.5144357 -34.975259 -4.1724765 -54.24399 -4.1724765 -54.24399 -5.4921846 -35.003749 
11.7 -5.1057467 -36.951747 -4.3429063 -61.82136 -4.3429063 -61.82136 -5.0844767 -36.98879 
11.8 -4.7077354 -38.785891 -4.5334239 -69.680708 -4.5334239 -69.680708 -4.6877967 -38.832208 
11.9 -4.3311686 -40.446733 -4.7390409 -77.862112 -4.7390409 -77.862112 -4.3127709 -40.50245 
12 -3.9863738 -41.919383 -4.9526184 -86.378639 -4.9526184 -86.378639 -3.9696105 -41.983883 
12.1 -3.68113 -43.205266 -5.1668467 -95.211927 -5.1668467 -95.211927 -3.6660179 -43.277142 
12.2 -3.4194714 -44.319395 -5.3761789 -104.3165 -5.3761789 -104.3165 -3.4059917 -44.396482 
12.3 -3.1964037 -45.274453 -5.574126 -113.64526 -5.574126 -113.64526 -3.184527 -45.353132 
12.4 -3.0047006 -46.088224 -5.75618 -123.13828 -5.75618 -123.13828 -2.994415 -46.163833 
12.5 -2.8413402 -46.788357 -5.923597 -132.7362 -5.923597 -132.7362 -2.8326607 -46.856523 
12.6 -2.7037517 -47.384518 -6.0758323 -142.41589 -6.0758323 -142.41589 -2.696685 -47.441517 
12.7 -2.5907921 -47.846796 -6.2054021 -152.1875 -6.2054021 -152.1875 -2.5852636 -47.889725 
12.8 -2.5014997 -48.084574 -6.2954422 -162.07557 -6.2954422 -162.07557 -2.497249 -48.111411 
12.9 -2.4150081 -47.727615 -6.3241926 -172.11433 -6.3241926 -172.11433 -2.411506 -47.738806 
13 -2.3062956 -46.494877 -6.2696508 177.71415 -6.2696508 177.71415 -2.3026192 -46.492802 
13.1 -2.1569943 -44.546413 -6.1252484 167.52052 -6.1252484 167.52052 -2.1518905 -44.53362 
13.2 -1.9345353 -42.246294 -5.9133286 157.42016 -5.9133286 157.42016 -1.9268414 -42.226406 
13.3 -1.6024931 -39.829195 -5.6754645 147.57574 -5.6754645 147.57574 -1.5918091 -39.808584 
13.4 -1.1497472 -37.632598 -5.456928 138.06906 -5.456928 138.06906 -1.1366607 -37.618144 
13.5 -0.60907093 -36.161881 -5.2778227 128.82856 -5.2778227 128.82856 -0.59467308 -36.156946 
13.6 -0.028864923 -35.616845 -5.1254701 119.80332 -5.1254701 119.80332 -0.014208971 -35.621504 
13.7 0.55300073 -35.924123 -4.9699503 111.01974 -4.9699503 111.01974 0.56718376 -35.936963 
13.8 1.0717886 -37.138105 -4.7498874 102.14977 -4.7498874 102.14977 1.0853418 -37.15797 
13.9 1.5153259 -38.943156 -4.451459 93.536648 -4.451459 93.536648 1.5283631 -38.968514 
14 1.9398902 -40.535062 -4.2058997 86.124029 -4.2058997 86.124029 1.9522877 -40.562762 
